Sample in Buffer	Sample in Window	adc_data_ch0	adc_data_ch1	adc_data_ch2	adc_data_ch3
0	0	1437	1409	1398	1300	
1	1	177	71	295	-39	
2	2	-1289	-1283	-1222	-1208	
3	3	-423	-305	-535	-179	
4	4	1284	1317	1180	1274	
5	5	855	758	926	615	
6	6	-944	-992	-828	-990	
7	7	-1023	-933	-1075	-782	
8	8	777	864	640	895	
9	9	1323	1266	1332	1128	
10	10	-315	-411	-187	-477	
11	11	-1313	-1263	-1291	-1150	
12	12	77	190	-58	293	
13	13	1430	1425	1363	1336	
14	14	418	313	526	190	
15	15	-1217	-1228	-1129	-1174	
16	16	-647	-537	-740	-388	
17	17	1148	1200	1034	1182	
18	18	1040	960	1100	812	
19	19	-761	-827	-630	-852	
20	20	-1156	-1077	-1184	-938	
21	21	552	657	420	716	
22	22	1400	1357	1387	1225	
23	23	-73	-170	52	-268	
24	24	-1323	-1296	-1280	-1200	
25	25	-186	-62	-311	60	
26	26	1380	1397	1295	1327	
27	27	635	539	734	397	
28	28	-1099	-1129	-1002	-1103	
29	29	-843	-738	-918	-593	
30	30	981	1049	850	1056	
31	31	1198	1123	1228	978	
32	32	-551	-630	-418	-668	
33	33	-1252	-1194	-1260	-1061	
34	34	322	424	178	513	
35	35	1439	1411	1397	1303	
36	36	167	67	289	-45	
37	37	-1293	-1286	-1228	-1209	
38	38	-417	-296	-531	-165	
39	39	1283	1314	1177	1271	
40	40	849	755	930	613	
41	41	-944	-994	-824	-989	
42	42	-1016	-926	-1070	-784	
43	43	774	859	639	899	
44	44	1318	1258	1333	1124	
45	45	-324	-413	-186	-483	
46	46	-1312	-1268	-1294	-1150	
47	47	78	194	-52	297	
48	48	1426	1420	1365	1329	
49	49	411	309	524	179	
50	50	-1215	-1228	-1128	-1172	
51	51	-638	-532	-732	-384	
52	52	1148	1198	1031	1183	
53	53	1039	954	1098	809	
54	54	-761	-831	-638	-854	
55	55	-1154	-1077	-1184	-938	
56	56	558	656	424	718	
57	57	1396	1354	1382	1229	
58	58	-78	-176	52	-275	
59	59	-1324	-1302	-1282	-1197	
60	60	-173	-57	-297	70	
61	61	1372	1391	1297	1327	
62	62	631	533	733	401	
63	63	-1099	-1137	-999	-1100	
64	64	-845	-735	-920	-591	
65	65	977	1046	854	1055	
66	66	1202	1129	1240	981	
67	67	-547	-633	-416	-679	
68	68	-1256	-1196	-1262	-1063	
69	69	315	424	178	510	
70	70	1431	1413	1398	1296	
71	71	164	60	291	-52	
72	72	-1292	-1284	-1228	-1206	
73	73	-418	-297	-527	-165	
74	74	1283	1321	1189	1273	
75	75	860	761	934	616	
76	76	-947	-996	-835	-996	
77	77	-1016	-927	-1070	-778	
78	78	788	869	654	914	
79	79	1316	1259	1331	1122	
80	80	-312	-404	-181	-477	
81	81	-1307	-1267	-1298	-1150	
82	82	73	190	-60	291	
83	83	1427	1424	1366	1333	
84	84	408	309	523	180	
85	85	-1212	-1230	-1132	-1174	
86	86	-637	-530	-739	-383	
87	87	1146	1194	1029	1181	
88	88	1048	958	1102	810	
89	89	-762	-832	-636	-850	
90	90	-1159	-1078	-1185	-933	
91	91	556	655	415	716	
92	92	1397	1360	1386	1230	
93	93	-69	-175	57	-266	
94	94	-1321	-1297	-1286	-1193	
95	95	-176	-59	-295	65	
96	96	1374	1392	1298	1326	
97	97	636	534	733	401	
98	98	-1097	-1135	-995	-1099	
99	99	-845	-743	-921	-595	
100	100	990	1054	861	1064	
101	101	1199	1125	1236	982	
102	102	-552	-635	-425	-679	
103	103	-1258	-1193	-1260	-1060	
104	104	319	427	177	515	
105	105	1435	1414	1397	1299	
106	106	170	66	288	-49	
107	107	-1286	-1283	-1234	-1210	
108	108	-417	-304	-530	-167	
109	109	1281	1314	1179	1266	
110	110	853	759	932	611	
111	111	-947	-1000	-839	-1000	
112	112	-1010	-922	-1067	-778	
113	113	785	863	645	903	
114	114	1316	1261	1331	1118	
115	115	-326	-411	-190	-479	
116	116	-1313	-1264	-1292	-1149	
117	117	69	184	-60	287	
118	118	1429	1417	1364	1334	
119	119	402	299	520	174	
120	120	-1214	-1228	-1130	-1173	
121	121	-644	-534	-739	-386	
122	122	1151	1198	1033	1185	
123	123	1041	951	1096	810	
124	124	-754	-827	-636	-848	
125	125	-1154	-1074	-1187	-936	
126	126	561	661	422	721	
127	127	1397	1353	1384	1228	
128	128	-79	-174	56	-272	
129	129	-1323	-1297	-1279	-1195	
130	130	-170	-54	-300	69	
131	131	1376	1391	1298	1324	
132	132	645	536	735	396	
133	133	-1092	-1127	-992	-1098	
134	134	-841	-736	-914	-592	
135	135	986	1050	853	1064	
136	136	1200	1125	1227	976	
137	137	-553	-634	-425	-680	
138	138	-1246	-1190	-1258	-1057	
139	139	323	429	190	519	
140	140	1438	1406	1392	1299	
141	141	178	65	290	-40	
142	142	-1289	-1289	-1227	-1211	
143	143	-412	-298	-525	-161	
144	144	1282	1318	1180	1272	
145	145	857	760	938	617	
146	146	-943	-995	-835	-993	
147	147	-1015	-930	-1073	-783	
148	148	788	870	653	906	
149	149	1322	1259	1329	1120	
150	150	-318	-409	-188	-480	
151	151	-1311	-1265	-1292	-1152	
152	152	76	184	-58	295	
153	153	1427	1418	1364	1325	
154	154	414	311	521	178	
155	155	-1211	-1223	-1133	-1179	
156	156	-637	-529	-741	-390	
157	157	1152	1199	1030	1187	
158	158	1043	948	1097	803	
159	159	-766	-832	-643	-856	
160	160	-1152	-1077	-1192	-943	
161	161	569	662	428	720	
162	162	1398	1352	1380	1228	
163	163	-83	-180	44	-273	
164	164	-1322	-1299	-1282	-1201	
165	165	-172	-55	-297	70	
166	166	1377	1394	1299	1326	
167	167	643	536	736	396	
168	168	-1099	-1135	-1004	-1107	
169	169	-842	-738	-916	-588	
170	170	978	1050	851	1056	
171	171	1199	1122	1232	978	
172	172	-551	-625	-423	-680	
173	173	-1254	-1193	-1259	-1059	
174	174	324	430	184	514	
175	175	1437	1409	1400	1296	
176	176	162	62	283	-50	
177	177	-1295	-1287	-1230	-1210	
178	178	-413	-302	-522	-167	
179	179	1289	1323	1182	1274	
180	180	853	760	932	611	
181	181	-951	-1004	-839	-1000	
182	182	-1013	-920	-1069	-778	
183	183	792	867	653	910	
184	184	1316	1259	1330	1120	
185	185	-321	-416	-187	-484	
186	186	-1311	-1267	-1292	-1152	
187	187	82	195	-49	299	
188	188	1428	1423	1368	1328	
189	189	409	307	518	175	
190	190	-1216	-1229	-1135	-1177	
191	191	-644	-528	-735	-384	
192	192	1156	1205	1034	1187	
193	193	1043	955	1100	811	
194	194	-762	-833	-639	-853	
195	195	-1155	-1076	-1181	-938	
196	196	561	656	420	715	
197	197	1404	1354	1386	1229	
198	198	-84	-189	44	-279	
199	199	-1327	-1301	-1285	-1196	
200	200	-172	-55	-294	67	
201	201	1378	1390	1291	1319	
202	202	633	530	728	395	
203	203	-1103	-1137	-1001	-1104	
204	204	-847	-740	-924	-597	
205	205	979	1047	851	1050	
206	206	1204	1130	1238	982	
207	207	-553	-630	-422	-681	
208	208	-1248	-1189	-1257	-1057	
209	209	320	431	183	511	
210	210	1435	1411	1395	1301	
211	211	168	62	285	-50	
212	212	-1295	-1288	-1230	-1209	
213	213	-418	-304	-527	-169	
214	214	1288	1323	1186	1277	
215	215	846	751	926	611	
216	216	-950	-1001	-838	-994	
217	217	-1014	-926	-1068	-774	
218	218	786	869	652	905	
219	219	1317	1254	1328	1115	
220	220	-329	-416	-195	-483	
221	221	-1311	-1266	-1289	-1149	
222	222	74	186	-58	290	
223	223	1426	1418	1369	1334	
224	224	403	300	512	173	
225	225	-1218	-1237	-1134	-1175	
226	226	-638	-533	-737	-383	
227	227	1155	1201	1032	1188	
228	228	1035	948	1092	801	
229	229	-770	-834	-642	-856	
230	230	-1158	-1076	-1186	-939	
231	231	555	654	419	720	
232	232	1403	1347	1382	1230	
233	233	-85	-177	42	-267	
234	234	-1324	-1301	-1284	-1198	
235	235	-182	-60	-303	64	
236	236	1377	1390	1292	1324	
237	237	634	529	732	394	
238	238	-1097	-1133	-997	-1099	
239	239	-846	-738	-925	-597	
240	240	987	1052	858	1058	
241	241	1199	1121	1231	977	
242	242	-556	-634	-425	-682	
243	243	-1250	-1192	-1258	-1059	
244	244	327	429	188	518	
245	245	1434	1406	1397	1303	
246	246	164	63	283	-49	
247	247	-1295	-1289	-1230	-1207	
248	248	-412	-297	-524	-162	
249	249	1284	1315	1180	1271	
250	250	857	765	938	618	
251	251	-943	-991	-829	-994	
252	252	-1015	-924	-1072	-775	
253	253	782	864	647	897	
254	254	1324	1256	1323	1119	
255	255	-326	-412	-198	-492	
256	256	-1306	-1273	-1291	-1146	
257	257	70	192	-61	293	
258	258	1426	1423	1367	1330	
259	259	403	301	512	172	
260	260	-1214	-1234	-1137	-1178	
261	261	-640	-530	-729	-385	
262	262	1159	1205	1040	1195	
263	263	1038	947	1089	804	
264	264	-763	-833	-636	-853	
265	265	-1158	-1079	-1188	-934	
266	266	570	659	428	731	
267	267	1400	1355	1384	1230	
268	268	-83	-180	45	-275	
269	269	-1325	-1300	-1285	-1196	
270	270	-171	-52	-298	72	
271	271	1372	1387	1295	1326	
272	272	637	532	734	397	
273	273	-1098	-1132	-1002	-1107	
274	274	-845	-740	-921	-589	
275	275	975	1048	854	1064	
276	276	1198	1120	1234	978	
277	277	-553	-639	-427	-684	
278	278	-1250	-1192	-1252	-1059	
279	279	327	429	179	514	
280	280	1438	1404	1397	1303	
281	281	161	60	281	-49	
282	282	-1293	-1286	-1231	-1209	
283	283	-410	-297	-518	-163	
284	284	1285	1318	1191	1274	
285	285	843	754	924	606	
286	286	-947	-996	-833	-991	
287	287	-1012	-918	-1063	-770	
288	288	786	867	649	903	
289	289	1316	1251	1328	1115	
290	290	-317	-413	-193	-481	
291	291	-1311	-1270	-1296	-1153	
292	292	75	193	-58	297	
293	293	1423	1421	1369	1337	
294	294	403	302	520	179	
295	295	-1215	-1229	-1128	-1173	
296	296	-639	-530	-732	-383	
297	297	1150	1202	1040	1189	
298	298	1041	953	1095	803	
299	299	-764	-839	-643	-859	
300	300	-1155	-1075	-1188	-936	
301	301	563	663	430	719	
302	302	1400	1353	1386	1228	
303	303	-85	-182	47	-276	
304	304	-1326	-1298	-1283	-1194	
305	305	-166	-53	-293	70	
306	306	1385	1392	1300	1327	
307	307	640	543	739	400	
308	308	-1104	-1139	-998	-1106	
309	309	-848	-744	-914	-593	
310	310	985	1049	851	1065	
311	311	1196	1119	1227	970	
312	312	-558	-640	-426	-685	
313	313	-1257	-1194	-1262	-1060	
314	314	331	438	191	522	
315	315	1435	1407	1396	1303	
316	316	168	64	297	-45	
317	317	-1288	-1291	-1233	-1206	
318	318	-406	-295	-523	-158	
319	319	1290	1311	1187	1277	
320	320	849	758	931	609	
321	321	-947	-999	-837	-997	
322	322	-1010	-920	-1063	-775	
323	323	789	869	654	906	
324	324	1317	1251	1325	1118	
325	325	-322	-419	-190	-487	
326	326	-1315	-1265	-1296	-1146	
327	327	84	196	-51	298	
328	328	1432	1420	1371	1330	
329	329	406	303	519	177	
330	330	-1219	-1237	-1130	-1178	
331	331	-639	-528	-733	-384	
332	332	1147	1202	1034	1184	
333	333	1042	950	1096	803	
334	334	-763	-825	-636	-858	
335	335	-1150	-1083	-1188	-935	
336	336	566	663	425	718	
337	337	1392	1356	1389	1230	
338	338	-80	-185	46	-274	
339	339	-1324	-1300	-1283	-1198	
340	340	-166	-51	-292	72	
341	341	1378	1391	1302	1329	
342	342	638	534	733	391	
343	343	-1104	-1135	-1003	-1109	
344	344	-837	-732	-910	-583	
345	345	985	1056	861	1065	
346	346	1197	1119	1235	976	
347	347	-556	-639	-427	-685	
348	348	-1253	-1188	-1262	-1061	
349	349	327	436	192	520	
350	350	1439	1411	1398	1295	
351	351	161	61	286	-51	
352	352	-1288	-1280	-1223	-1209	
353	353	-412	-300	-525	-164	
354	354	1285	1317	1183	1274	
355	355	848	754	924	605	
356	356	-950	-1000	-838	-995	
357	357	-1020	-926	-1070	-781	
358	358	785	873	652	909	
359	359	1319	1257	1330	1118	
360	360	-326	-410	-191	-487	
361	361	-1312	-1262	-1298	-1151	
362	362	72	188	-59	291	
363	363	1426	1425	1372	1330	
364	364	408	301	519	177	
365	365	-1220	-1230	-1135	-1176	
366	366	-630	-517	-725	-374	
367	367	1150	1203	1039	1186	
368	368	1036	948	1094	803	
369	369	-764	-833	-642	-858	
370	370	-1156	-1077	-1184	-941	
371	371	566	664	429	723	
372	372	1398	1357	1385	1227	
373	373	-89	-192	43	-284	
374	374	-1322	-1302	-1282	-1198	
375	375	-172	-57	-296	65	
376	376	1381	1393	1297	1321	
377	377	640	539	734	396	
378	378	-1110	-1142	-1008	-1105	
379	379	-841	-741	-919	-593	
380	380	992	1058	855	1065	
381	381	1192	1117	1228	974	
382	382	-560	-633	-422	-677	
383	383	-1252	-1189	-1262	-1061	
384	384	320	426	181	507	
385	385	1432	1405	1395	1297	
386	386	160	56	282	-54	
387	387	-1291	-1289	-1229	-1204	
388	388	-408	-292	-522	-159	
389	389	1286	1321	1188	1277	
390	390	848	752	925	609	
391	391	-951	-1003	-840	-997	
392	392	-1010	-919	-1064	-773	
393	393	779	873	650	907	
394	394	1316	1258	1330	1118	
395	395	-319	-414	-191	-484	
396	396	-1309	-1269	-1291	-1154	
397	397	82	195	-54	297	
398	398	1430	1422	1367	1332	
399	399	406	301	511	175	
400	400	-1218	-1231	-1140	-1175	
401	401	-635	-528	-733	-384	
402	402	1157	1203	1041	1190	
403	403	1038	954	1095	801	
404	404	-769	-841	-645	-856	
405	405	-1151	-1074	-1182	-934	
406	406	571	663	430	725	
407	407	1399	1356	1387	1227	
408	408	-76	-178	51	-272	
409	409	-1325	-1297	-1285	-1200	
410	410	-173	-53	-294	70	
411	411	1377	1391	1299	1323	
412	412	637	537	730	397	
413	413	-1101	-1140	-999	-1106	
414	414	-836	-733	-913	-583	
415	415	987	1054	860	1059	
416	416	1201	1123	1232	975	
417	417	-560	-647	-432	-688	
418	418	-1256	-1193	-1260	-1057	
419	419	326	432	189	522	
420	420	1435	1401	1400	1296	
421	421	167	63	290	-49	
422	422	-1292	-1288	-1224	-1203	
423	423	-417	-299	-525	-164	
424	424	1286	1315	1179	1272	
425	425	845	752	927	603	
426	426	-949	-1004	-836	-996	
427	427	-1006	-915	-1057	-766	
428	428	787	871	659	908	
429	429	1309	1252	1328	1113	
430	430	-331	-423	-199	-492	
431	431	-1313	-1272	-1298	-1151	
432	432	89	199	-49	304	
433	433	1430	1423	1371	1330	
434	434	404	302	517	174	
435	435	-1218	-1233	-1136	-1176	
436	436	-637	-520	-728	-380	
437	437	1158	1206	1036	1182	
438	438	1034	948	1096	804	
439	439	-772	-838	-644	-859	
440	440	-1156	-1075	-1186	-932	
441	441	566	658	427	725	
442	442	1396	1354	1385	1226	
443	443	-86	-188	40	-278	
444	444	-1324	-1302	-1282	-1204	
445	445	-162	-46	-286	73	
446	446	1380	1388	1296	1320	
447	447	636	539	733	394	
448	448	-1100	-1133	-1001	-1104	
449	449	-838	-739	-913	-590	
450	450	985	1052	861	1062	
451	451	1195	1111	1227	966	
452	452	-558	-636	-428	-687	
453	453	-1249	-1190	-1255	-1052	
454	454	325	433	186	515	
455	455	1431	1409	1396	1298	
456	456	160	58	285	-53	
457	457	-1292	-1289	-1231	-1206	
458	458	-411	-294	-520	-159	
459	459	1294	1316	1191	1272	
460	460	854	750	926	608	
461	461	-951	-1001	-839	-1001	
462	462	-1009	-918	-1065	-776	
463	463	785	872	649	909	
464	464	1313	1252	1331	1119	
465	465	-329	-423	-201	-490	
466	466	-1311	-1264	-1293	-1146	
467	467	81	191	-55	296	
468	468	1430	1419	1369	1332	
469	469	395	291	504	166	
470	470	-1219	-1237	-1137	-1184	
471	471	-634	-525	-727	-381	
472	472	1148	1200	1037	1180	
473	473	1034	944	1087	799	
474	474	-770	-841	-646	-860	
475	475	-1146	-1072	-1185	-922	
476	476	561	659	424	721	
477	477	1393	1350	1386	1227	
478	478	-93	-191	39	-280	
479	479	-1323	-1300	-1283	-1199	
480	480	-174	-51	-297	73	
481	481	1378	1386	1292	1322	
482	482	625	522	726	385	
483	483	-1104	-1139	-1004	-1108	
484	484	-835	-739	-916	-584	
485	485	998	1054	865	1065	
486	486	1190	1115	1224	976	
487	487	-558	-634	-426	-682	
488	488	-1250	-1188	-1260	-1064	
489	489	333	432	191	524	
490	490	1436	1406	1400	1294	
491	491	159	51	284	-57	
492	492	-1286	-1290	-1230	-1208	
493	493	-406	-291	-520	-154	
494	494	1282	1314	1189	1273	
495	495	852	750	933	609	
496	496	-948	-1001	-831	-997	
497	497	-1009	-918	-1062	-772	
498	498	789	868	653	911	
499	499	1318	1253	1326	1116	
500	500	-318	-415	-193	-486	
501	501	-1307	-1265	-1293	-1148	
502	502	80	195	-49	298	
503	503	1430	1421	1371	1329	
504	504	395	294	509	170	
505	505	-1223	-1233	-1133	-1178	
506	506	-628	-519	-725	-374	
507	507	1156	1205	1041	1187	
508	508	1036	943	1092	801	
509	509	-773	-839	-645	-857	
510	510	-1153	-1074	-1182	-928	
511	511	568	669	432	727	
512	512	1397	1352	1382	1226	
513	513	-93	-188	38	-281	
514	514	-1327	-1297	-1281	-1200	
515	515	-166	-49	-287	79	
516	516	1382	1388	1296	1323	
517	517	634	530	726	390	
518	518	-1100	-1135	-1005	-1105	
519	519	-836	-738	-911	-586	
520	520	1002	1059	862	1066	
521	521	1193	1117	1227	971	
522	522	-554	-640	-428	-686	
523	523	-1251	-1191	-1262	-1057	
524	524	323	431	183	513	
525	525	1433	1406	1400	1297	
526	526	158	54	281	-58	
527	527	-1295	-1285	-1228	-1208	
528	528	-406	-289	-517	-156	
529	529	1291	1315	1192	1273	
530	530	846	750	922	606	
531	531	-955	-1009	-840	-1004	
532	532	-1011	-919	-1060	-775	
533	533	794	880	666	915	
534	534	1310	1257	1325	1108	
535	535	-330	-418	-192	-488	
536	536	-1308	-1268	-1290	-1149	
537	537	87	203	-46	302	
538	538	1427	1418	1370	1329	
539	539	411	309	521	180	
540	540	-1220	-1237	-1133	-1176	
541	541	-635	-518	-726	-378	
542	542	1156	1205	1040	1192	
543	543	1029	943	1086	791	
544	544	-763	-836	-645	-852	
545	545	-1149	-1071	-1187	-935	
546	546	567	665	431	731	
547	547	1395	1350	1386	1222	
548	548	-84	-185	42	-277	
549	549	-1325	-1297	-1282	-1195	
550	550	-169	-55	-291	67	
551	551	1382	1389	1295	1325	
552	552	630	527	728	395	
553	553	-1099	-1136	-1002	-1107	
554	554	-831	-726	-910	-584	
555	555	987	1056	858	1062	
556	556	1191	1112	1227	970	
557	557	-554	-631	-422	-683	
558	558	-1257	-1191	-1258	-1061	
559	559	328	435	190	523	
560	560	1436	1409	1401	1299	
561	561	160	52	280	-54	
562	562	-1293	-1292	-1230	-1207	
563	563	-398	-285	-513	-152	
564	564	1289	1316	1191	1276	
565	565	845	750	920	601	
566	566	-943	-999	-836	-997	
567	567	-1009	-917	-1062	-773	
568	568	790	866	652	903	
569	569	1313	1247	1323	1109	
570	570	-326	-420	-195	-488	
571	571	-1308	-1266	-1294	-1148	
572	572	81	189	-59	293	
573	573	1425	1420	1371	1332	
574	574	405	301	522	174	
575	575	-1220	-1236	-1142	-1180	
576	576	-625	-521	-724	-373	
577	577	1157	1203	1032	1188	
578	578	1032	946	1085	798	
579	579	-767	-839	-647	-855	
580	580	-1144	-1070	-1182	-931	
581	581	573	669	433	727	
582	582	1393	1348	1385	1223	
583	583	-96	-189	32	-284	
584	584	-1322	-1296	-1282	-1201	
585	585	-163	-48	-286	73	
586	586	1379	1390	1295	1322	
587	587	630	534	732	400	
588	588	-1105	-1137	-1008	-1102	
589	589	-834	-732	-915	-578	
590	590	989	1059	859	1066	
591	591	1191	1113	1223	972	
592	592	-564	-636	-424	-683	
593	593	-1250	-1187	-1257	-1054	
594	594	331	436	188	522	
595	595	1433	1408	1399	1297	
596	596	153	48	276	-61	
597	597	-1292	-1290	-1228	-1205	
598	598	-407	-294	-525	-160	
599	599	1284	1318	1188	1278	
600	600	847	753	926	599	
601	601	-956	-1009	-846	-1005	
602	602	-1007	-918	-1071	-776	
603	603	795	881	659	915	
604	604	1312	1257	1329	1116	
605	605	-330	-422	-198	-490	
606	606	-1314	-1266	-1295	-1152	
607	607	85	201	-50	306	
608	608	1430	1421	1364	1331	
609	609	399	299	502	164	
610	610	-1225	-1239	-1138	-1176	
611	611	-626	-517	-725	-372	
612	612	1154	1209	1038	1188	
613	613	1037	941	1088	795	
614	614	-773	-835	-644	-862	
615	615	-1150	-1076	-1184	-937	
616	616	569	665	424	721	
617	617	1399	1348	1381	1226	
618	618	-96	-184	34	-278	
619	619	-1326	-1295	-1281	-1198	
620	620	-169	-42	-290	77	
621	621	1380	1390	1295	1325	
622	622	632	533	728	387	
623	623	-1105	-1141	-1006	-1110	
624	624	-832	-735	-915	-587	
625	625	993	1059	859	1066	
626	626	1193	1115	1222	965	
627	627	-563	-644	-442	-689	
628	628	-1254	-1190	-1264	-1055	
629	629	332	437	190	521	
630	630	1436	1407	1398	1295	
631	631	159	53	281	-59	
632	632	-1293	-1288	-1230	-1211	
633	633	-405	-291	-514	-153	
634	634	1291	1318	1189	1275	
635	635	838	743	923	597	
636	636	-953	-1004	-841	-1000	
637	637	-1008	-923	-1069	-772	
638	638	792	874	655	906	
639	639	1315	1255	1331	1120	
640	640	-332	-419	-197	-491	
641	641	-1309	-1266	-1295	-1149	
642	642	77	198	-54	299	
643	643	1429	1419	1366	1332	
644	644	395	297	509	168	
645	645	-1221	-1234	-1138	-1180	
646	646	-620	-519	-724	-372	
647	647	1156	1211	1041	1188	
648	648	1026	939	1085	793	
649	649	-769	-832	-647	-860	
650	650	-1148	-1068	-1182	-933	
651	651	566	660	420	725	
652	652	1399	1353	1378	1229	
653	653	-90	-193	36	-281	
654	654	-1321	-1297	-1288	-1198	
655	655	-170	-52	-296	69	
656	656	1380	1393	1298	1325	
657	657	628	526	726	392	
658	658	-1110	-1135	-1008	-1108	
659	659	-831	-727	-905	-579	
660	660	989	1059	856	1060	
661	661	1193	1119	1227	970	
662	662	-573	-649	-439	-692	
663	663	-1251	-1190	-1265	-1056	
664	664	332	443	191	527	
665	665	1436	1409	1397	1293	
666	666	151	49	273	-63	
667	667	-1292	-1284	-1230	-1214	
668	668	-406	-292	-520	-161	
669	669	1292	1320	1192	1279	
670	670	833	739	913	591	
671	671	-953	-1004	-839	-1002	
672	672	-1009	-917	-1067	-774	
673	673	799	884	658	920	
674	674	1314	1256	1327	1114	
675	675	-335	-427	-208	-501	
676	676	-1308	-1262	-1291	-1145	
677	677	81	194	-52	302	
678	678	1427	1420	1374	1331	
679	679	397	293	512	167	
680	680	-1218	-1235	-1134	-1175	
681	681	-629	-516	-726	-373	
682	682	1160	1208	1043	1192	
683	683	1034	944	1087	792	
684	684	-776	-846	-655	-865	
685	685	-1148	-1071	-1188	-929	
686	686	564	667	428	725	
687	687	1393	1350	1382	1227	
688	688	-94	-192	38	-283	
689	689	-1322	-1299	-1282	-1195	
690	690	-168	-50	-293	73	
691	691	1382	1386	1301	1325	
692	692	630	523	724	389	
693	693	-1114	-1142	-1016	-1103	
694	694	-832	-729	-916	-582	
695	695	991	1057	866	1071	
696	696	1192	1113	1228	969	
697	697	-570	-646	-436	-692	
698	698	-1253	-1185	-1259	-1057	
699	699	337	443	195	527	
700	700	1434	1412	1396	1297	
701	701	154	50	274	-62	
702	702	-1295	-1292	-1232	-1211	
703	703	-406	-291	-519	-157	
