Sample in Buffer	Sample in Window	adc_data_ch0	adc_data_ch1	adc_data_ch2	adc_data_ch3
0	0	2448	1462	1761	1705	
1	1	1453	-1969	-1462	-1534	
2	2	-1913	-1849	-2015	-2033	
3	3	-1851	1667	1158	1180	
4	4	1607	2409	2439	2408	
5	5	2363	-798	-250	-326	
6	6	-761	-2532	-2393	-2429	
7	7	-2490	344	-160	-143	
8	8	297	2704	2481	2472	
9	9	2638	599	1034	973	
10	10	606	-2451	-2055	-2117	
11	11	-2386	-1076	-1408	-1402	
12	12	-1084	2307	1879	1887	
13	13	2236	1839	2051	2000	
14	14	1813	-1633	-1094	-1166	
15	15	-1581	-2158	-2222	-2243	
16	16	-2135	1257	740	759	
17	17	1200	2586	2530	2499	
18	18	2532	-341	188	110	
19	19	-310	-2596	-2364	-2409	
20	20	-2547	-144	-598	-590	
21	21	-182	2641	2355	2344	
22	22	2573	1040	1419	1358	
23	23	1046	-2251	-1795	-1860	
24	24	-2197	-1494	-1744	-1744	
25	25	-1483	2019	1547	1561	
26	26	1951	2146	2281	2241	
27	27	2122	-1230	-688	-760	
28	28	-1194	-2384	-2354	-2378	
29	29	-2354	810	296	311	
30	30	759	2672	2542	2515	
31	31	2625	131	618	548	
32	32	156	-2566	-2246	-2299	
33	33	-2515	-618	-1016	-1011	
34	34	-639	2513	2152	2155	
35	35	2451	1456	1758	1703	
36	36	1454	-1980	-1470	-1543	
37	37	-1924	-1862	-2019	-2022	
38	38	-1848	1672	1163	1173	
39	39	1604	2407	2437	2406	
40	40	2362	-796	-249	-330	
41	41	-756	-2532	-2401	-2436	
42	42	-2492	338	-165	-144	
43	43	296	2705	2482	2465	
44	44	2642	598	1032	967	
45	45	611	-2444	-2059	-2113	
46	46	-2399	-1074	-1408	-1408	
47	47	-1082	2303	1875	1892	
48	48	2234	1832	2056	2007	
49	49	1811	-1630	-1098	-1170	
50	50	-1584	-2163	-2227	-2244	
51	51	-2139	1257	735	749	
52	52	1199	2586	2533	2494	
53	53	2533	-349	188	110	
54	54	-311	-2598	-2360	-2414	
55	55	-2548	-146	-603	-590	
56	56	-176	2647	2354	2345	
57	57	2581	1042	1408	1353	
58	58	1040	-2249	-1791	-1856	
59	59	-2198	-1489	-1742	-1744	
60	60	-1490	2023	1549	1553	
61	61	1954	2153	2281	2238	
62	62	2120	-1240	-684	-759	
63	63	-1192	-2388	-2350	-2375	
64	64	-2353	815	293	312	
65	65	761	2678	2546	2522	
66	66	2630	132	622	548	
67	67	154	-2568	-2250	-2303	
68	68	-2515	-620	-1021	-1015	
69	69	-642	2513	2151	2150	
70	70	2444	1461	1761	1702	
71	71	1452	-1974	-1463	-1537	
72	72	-1922	-1857	-2014	-2027	
73	73	-1848	1674	1166	1177	
74	74	1605	2403	2443	2408	
75	75	2364	-801	-257	-331	
76	76	-768	-2529	-2391	-2436	
77	77	-2497	338	-157	-140	
78	78	301	2701	2483	2470	
79	79	2639	596	1032	964	
80	80	603	-2448	-2055	-2114	
81	81	-2398	-1076	-1406	-1403	
82	82	-1083	2304	1881	1887	
83	83	2241	1834	2060	2003	
84	84	1812	-1639	-1094	-1164	
85	85	-1586	-2162	-2224	-2243	
86	86	-2136	1269	739	761	
87	87	1206	2580	2529	2499	
88	88	2536	-344	184	112	
89	89	-311	-2595	-2363	-2410	
90	90	-2545	-140	-601	-592	
91	91	-176	2647	2346	2346	
92	92	2578	1048	1420	1358	
93	93	1044	-2252	-1798	-1851	
94	94	-2194	-1490	-1744	-1743	
95	95	-1495	2018	1548	1561	
96	96	1949	2158	2282	2236	
97	97	2122	-1243	-683	-765	
98	98	-1191	-2384	-2355	-2378	
99	99	-2348	814	299	317	
100	100	769	2680	2539	2523	
101	101	2619	134	623	546	
102	102	156	-2566	-2250	-2301	
103	103	-2519	-623	-1031	-1016	
104	104	-646	2513	2156	2151	
105	105	2445	1457	1761	1703	
106	106	1449	-1971	-1472	-1537	
107	107	-1914	-1861	-2020	-2022	
108	108	-1851	1671	1152	1176	
109	109	1610	2401	2441	2404	
110	110	2356	-802	-249	-323	
111	111	-762	-2539	-2403	-2433	
112	112	-2490	338	-154	-145	
113	113	301	2701	2481	2470	
114	114	2641	599	1036	975	
115	115	609	-2449	-2057	-2115	
116	116	-2400	-1080	-1410	-1401	
117	117	-1094	2305	1878	1884	
118	118	2236	1832	2052	2002	
119	119	1811	-1638	-1104	-1172	
120	120	-1585	-2156	-2218	-2236	
121	121	-2137	1268	748	757	
122	122	1203	2584	2523	2504	
123	123	2530	-340	186	113	
124	124	-305	-2590	-2366	-2405	
125	125	-2546	-143	-601	-588	
126	126	-170	2641	2351	2348	
127	127	2580	1049	1423	1354	
128	128	1045	-2249	-1797	-1856	
129	129	-2193	-1486	-1736	-1743	
130	130	-1494	2016	1543	1552	
131	131	1954	2157	2283	2238	
132	132	2128	-1236	-681	-760	
133	133	-1189	-2386	-2355	-2381	
134	134	-2361	813	291	315	
135	135	762	2677	2539	2523	
136	136	2630	130	618	543	
137	137	156	-2567	-2259	-2302	
138	138	-2516	-621	-1020	-1012	
139	139	-639	2514	2149	2145	
140	140	2444	1463	1763	1702	
141	141	1456	-1972	-1468	-1539	
142	142	-1920	-1859	-2013	-2028	
143	143	-1849	1669	1157	1178	
144	144	1607	2403	2435	2409	
145	145	2367	-803	-253	-324	
146	146	-765	-2535	-2393	-2434	
147	147	-2493	339	-157	-140	
148	148	301	2699	2484	2474	
149	149	2642	594	1038	959	
150	150	614	-2453	-2059	-2115	
151	151	-2395	-1081	-1406	-1400	
152	152	-1088	2303	1877	1888	
153	153	2235	1828	2057	2001	
154	154	1813	-1630	-1094	-1166	
155	155	-1585	-2160	-2225	-2243	
156	156	-2139	1257	744	756	
157	157	1208	2569	2527	2504	
158	158	2532	-339	188	114	
159	159	-313	-2588	-2362	-2412	
160	160	-2550	-142	-598	-584	
161	161	-172	2646	2355	2345	
162	162	2582	1045	1422	1353	
163	163	1045	-2245	-1793	-1858	
164	164	-2196	-1489	-1741	-1748	
165	165	-1490	2022	1546	1550	
166	166	1952	2154	2291	2236	
167	167	2115	-1238	-684	-764	
168	168	-1196	-2385	-2350	-2380	
169	169	-2355	815	300	310	
170	170	761	2686	2539	2522	
171	171	2628	132	619	550	
172	172	155	-2561	-2252	-2296	
173	173	-2519	-627	-1029	-1016	
174	174	-650	2511	2155	2153	
175	175	2448	1458	1762	1698	
176	176	1444	-1973	-1471	-1542	
177	177	-1927	-1858	-2021	-2027	
178	178	-1845	1664	1156	1173	
179	179	1598	2401	2441	2404	
180	180	2361	-798	-252	-326	
181	181	-767	-2533	-2403	-2433	
182	182	-2496	342	-157	-142	
183	183	300	2703	2477	2464	
184	184	2639	598	1036	968	
185	185	609	-2448	-2054	-2112	
186	186	-2402	-1070	-1406	-1401	
187	187	-1089	2309	1879	1885	
188	188	2238	1837	2054	2000	
189	189	1811	-1629	-1091	-1171	
190	190	-1581	-2160	-2223	-2236	
191	191	-2135	1260	736	758	
192	192	1202	2576	2530	2502	
193	193	2534	-341	188	115	
194	194	-309	-2594	-2365	-2407	
195	195	-2548	-141	-595	-581	
196	196	-173	2647	2352	2344	
197	197	2585	1049	1418	1354	
198	198	1045	-2249	-1794	-1860	
199	199	-2194	-1493	-1743	-1748	
200	200	-1494	2026	1544	1555	
201	201	1949	2155	2284	2241	
202	202	2120	-1235	-683	-758	
203	203	-1193	-2383	-2355	-2382	
204	204	-2358	810	291	307	
205	205	760	2680	2542	2517	
206	206	2621	131	624	549	
207	207	149	-2562	-2248	-2304	
208	208	-2519	-622	-1025	-1010	
209	209	-647	2509	2150	2148	
210	210	2444	1460	1760	1703	
211	211	1448	-1974	-1468	-1540	
212	212	-1926	-1856	-2019	-2026	
213	213	-1850	1670	1161	1172	
214	214	1606	2407	2445	2411	
215	215	2360	-800	-257	-325	
216	216	-762	-2533	-2396	-2436	
217	217	-2503	342	-156	-138	
218	218	296	2702	2482	2468	
219	219	2642	604	1033	967	
220	220	609	-2448	-2059	-2114	
221	221	-2390	-1078	-1408	-1406	
222	222	-1081	2309	1879	1886	
223	223	2235	1836	2056	2004	
224	224	1811	-1631	-1096	-1166	
225	225	-1581	-2152	-2219	-2238	
226	226	-2138	1260	735	754	
227	227	1205	2585	2528	2498	
228	228	2535	-338	183	108	
229	229	-307	-2586	-2367	-2408	
230	230	-2550	-143	-600	-588	
231	231	-178	2645	2349	2349	
232	232	2576	1049	1417	1354	
233	233	1044	-2249	-1795	-1855	
234	234	-2196	-1487	-1741	-1745	
235	235	-1491	2022	1548	1555	
236	236	1953	2151	2284	2234	
237	237	2117	-1241	-689	-766	
238	238	-1190	-2381	-2351	-2377	
239	239	-2359	817	294	311	
240	240	761	2684	2538	2517	
241	241	2622	131	622	542	
242	242	152	-2560	-2248	-2303	
243	243	-2515	-621	-1021	-1017	
244	244	-644	2512	2144	2150	
245	245	2446	1463	1769	1701	
246	246	1447	-1976	-1470	-1539	
247	247	-1927	-1857	-2021	-2032	
248	248	-1851	1669	1158	1176	
249	249	1602	2405	2443	2407	
250	250	2362	-804	-252	-332	
251	251	-767	-2529	-2398	-2441	
252	252	-2494	345	-149	-140	
253	253	292	2704	2488	2466	
254	254	2636	602	1037	968	
255	255	611	-2448	-2057	-2116	
256	256	-2391	-1072	-1400	-1401	
257	257	-1086	2308	1882	1885	
258	258	2240	1835	2052	1998	
259	259	1806	-1631	-1094	-1166	
260	260	-1584	-2156	-2225	-2238	
261	261	-2134	1265	742	755	
262	262	1201	2584	2527	2503	
263	263	2531	-340	188	115	
264	264	-312	-2589	-2367	-2410	
265	265	-2548	-143	-593	-587	
266	266	-174	2643	2352	2342	
267	267	2576	1043	1416	1353	
268	268	1047	-2246	-1795	-1861	
269	269	-2196	-1493	-1739	-1742	
270	270	-1496	2026	1549	1554	
271	271	1953	2157	2282	2238	
272	272	2123	-1242	-684	-761	
273	273	-1195	-2383	-2352	-2381	
274	274	-2359	819	292	314	
275	275	762	2684	2543	2515	
276	276	2622	133	622	552	
277	277	151	-2565	-2253	-2295	
278	278	-2510	-620	-1026	-1014	
279	279	-645	2513	2151	2150	
280	280	2445	1458	1759	1704	
281	281	1450	-1968	-1471	-1539	
282	282	-1925	-1859	-2021	-2031	
283	283	-1851	1672	1162	1174	
284	284	1604	2404	2442	2403	
285	285	2365	-800	-254	-327	
286	286	-764	-2525	-2398	-2434	
287	287	-2497	339	-162	-141	
288	288	296	2704	2483	2468	
289	289	2642	598	1037	965	
290	290	608	-2453	-2059	-2116	
291	291	-2397	-1078	-1408	-1405	
292	292	-1083	2304	1882	1883	
293	293	2239	1831	2050	2001	
294	294	1808	-1630	-1099	-1170	
295	295	-1584	-2155	-2225	-2244	
296	296	-2134	1261	737	748	
297	297	1205	2579	2523	2503	
298	298	2535	-341	183	104	
299	299	-312	-2593	-2367	-2409	
300	300	-2544	-145	-596	-588	
301	301	-175	2647	2351	2344	
302	302	2577	1046	1414	1348	
303	303	1045	-2258	-1793	-1855	
304	304	-2196	-1493	-1736	-1744	
305	305	-1495	2018	1539	1561	
306	306	1957	2152	2280	2239	
307	307	2123	-1238	-685	-759	
308	308	-1193	-2385	-2353	-2383	
309	309	-2358	817	300	311	
310	310	761	2677	2540	2517	
311	311	2631	133	619	555	
312	312	158	-2563	-2253	-2304	
313	313	-2513	-621	-1021	-1014	
314	314	-642	2517	2155	2155	
315	315	2448	1457	1760	1706	
316	316	1451	-1977	-1471	-1540	
317	317	-1922	-1860	-2013	-2025	
318	318	-1844	1668	1156	1170	
319	319	1603	2409	2444	2405	
320	320	2365	-803	-248	-331	
321	321	-759	-2535	-2395	-2437	
322	322	-2495	341	-153	-143	
323	323	304	2698	2484	2465	
324	324	2640	595	1033	969	
325	325	606	-2447	-2052	-2115	
326	326	-2399	-1069	-1399	-1401	
327	327	-1079	2308	1881	1887	
328	328	2240	1829	2054	2005	
329	329	1814	-1640	-1090	-1170	
330	330	-1583	-2155	-2222	-2245	
331	331	-2133	1263	742	754	
332	332	1205	2584	2527	2499	
333	333	2539	-337	189	114	
334	334	-301	-2598	-2362	-2407	
335	335	-2548	-144	-593	-586	
336	336	-174	2647	2349	2346	
337	337	2580	1044	1421	1350	
338	338	1051	-2244	-1789	-1855	
339	339	-2193	-1489	-1735	-1747	
340	340	-1495	2020	1550	1556	
341	341	1951	2154	2285	2241	
342	342	2125	-1235	-681	-757	
343	343	-1193	-2385	-2350	-2381	
344	344	-2356	814	296	316	
345	345	760	2680	2543	2517	
346	346	2626	130	621	547	
347	347	155	-2560	-2248	-2302	
348	348	-2512	-614	-1021	-1015	
349	349	-644	2518	2157	2145	
350	350	2443	1461	1762	1705	
351	351	1449	-1969	-1466	-1541	
352	352	-1921	-1855	-2018	-2032	
353	353	-1848	1681	1161	1182	
354	354	1607	2403	2443	2406	
355	355	2360	-801	-253	-329	
356	356	-768	-2533	-2397	-2436	
357	357	-2498	340	-160	-141	
358	358	301	2700	2483	2469	
359	359	2641	595	1035	965	
360	360	606	-2449	-2060	-2117	
361	361	-2399	-1071	-1402	-1400	
362	362	-1083	2307	1878	1882	
363	363	2242	1833	2051	2003	
364	364	1814	-1632	-1097	-1169	
365	365	-1584	-2159	-2222	-2242	
366	366	-2139	1266	740	755	
367	367	1204	2582	2527	2500	
368	368	2537	-334	196	111	
369	369	-306	-2588	-2367	-2412	
370	370	-2546	-142	-596	-589	
371	371	-177	2642	2361	2344	
372	372	2587	1041	1416	1354	
373	373	1044	-2247	-1792	-1854	
374	374	-2195	-1499	-1738	-1743	
375	375	-1492	2019	1543	1556	
376	376	1953	2144	2284	2240	
377	377	2120	-1235	-685	-761	
378	378	-1192	-2383	-2352	-2380	
379	379	-2354	812	299	311	
380	380	762	2680	2540	2521	
381	381	2625	134	620	545	
382	382	155	-2558	-2250	-2296	
383	383	-2511	-612	-1025	-1006	
384	384	-638	2512	2146	2149	
385	385	2447	1462	1759	1708	
386	386	1451	-1974	-1466	-1536	
387	387	-1924	-1848	-2017	-2031	
388	388	-1842	1665	1163	1166	
389	389	1610	2406	2440	2406	
390	390	2367	-792	-249	-328	
391	391	-760	-2535	-2406	-2432	
392	392	-2495	342	-159	-142	
393	393	298	2696	2482	2466	
394	394	2637	601	1033	961	
395	395	607	-2448	-2056	-2114	
396	396	-2395	-1074	-1403	-1399	
397	397	-1084	2308	1878	1885	
398	398	2238	1828	2057	2003	
399	399	1815	-1626	-1091	-1165	
400	400	-1577	-2158	-2221	-2246	
401	401	-2133	1260	743	756	
402	402	1205	2583	2530	2496	
403	403	2536	-335	184	108	
404	404	-308	-2592	-2365	-2404	
405	405	-2547	-147	-603	-588	
406	406	-172	2647	2350	2345	
407	407	2584	1049	1417	1357	
408	408	1048	-2246	-1792	-1855	
409	409	-2196	-1489	-1739	-1743	
410	410	-1493	2020	1545	1558	
411	411	1957	2148	2284	2240	
412	412	2123	-1233	-686	-755	
413	413	-1189	-2389	-2350	-2379	
414	414	-2356	813	300	313	
415	415	766	2680	2540	2517	
416	416	2626	127	619	552	
417	417	153	-2568	-2250	-2299	
418	418	-2516	-621	-1019	-1015	
419	419	-649	2516	2150	2154	
420	420	2451	1458	1762	1703	
421	421	1446	-1977	-1470	-1535	
422	422	-1919	-1847	-2013	-2027	
423	423	-1840	1664	1157	1172	
424	424	1603	2408	2441	2410	
425	425	2361	-806	-253	-331	
426	426	-763	-2528	-2397	-2438	
427	427	-2489	340	-156	-139	
428	428	296	2701	2480	2467	
429	429	2643	597	1039	971	
430	430	611	-2448	-2054	-2113	
431	431	-2400	-1070	-1407	-1406	
432	432	-1087	2307	1878	1884	
433	433	2236	1834	2056	2005	
434	434	1811	-1628	-1093	-1167	
435	435	-1589	-2156	-2219	-2246	
436	436	-2141	1261	743	751	
437	437	1204	2584	2533	2499	
438	438	2533	-338	183	116	
439	439	-308	-2592	-2363	-2410	
440	440	-2550	-140	-599	-584	
441	441	-176	2645	2351	2346	
442	442	2580	1046	1420	1353	
443	443	1047	-2252	-1793	-1861	
444	444	-2196	-1487	-1741	-1746	
445	445	-1486	2022	1545	1555	
446	446	1953	2148	2278	2243	
447	447	2120	-1238	-683	-763	
448	448	-1195	-2390	-2350	-2376	
449	449	-2353	813	294	316	
450	450	767	2681	2538	2522	
451	451	2621	133	617	553	
452	452	153	-2566	-2255	-2298	
453	453	-2518	-622	-1017	-1016	
454	454	-639	2513	2152	2152	
455	455	2449	1463	1756	1701	
456	456	1452	-1974	-1472	-1542	
457	457	-1923	-1860	-2020	-2025	
458	458	-1848	1666	1155	1169	
459	459	1602	2405	2444	2405	
460	460	2364	-799	-256	-331	
461	461	-759	-2533	-2405	-2437	
462	462	-2491	343	-159	-142	
463	463	293	2700	2482	2469	
464	464	2639	596	1034	966	
465	465	606	-2457	-2060	-2118	
466	466	-2397	-1073	-1414	-1400	
467	467	-1087	2305	1872	1883	
468	468	2236	1839	2057	1997	
469	469	1814	-1636	-1095	-1166	
470	470	-1580	-2160	-2227	-2239	
471	471	-2140	1262	740	750	
472	472	1199	2581	2526	2503	
473	473	2537	-344	189	110	
474	474	-307	-2593	-2369	-2409	
475	475	-2549	-143	-598	-584	
476	476	-175	2644	2352	2345	
477	477	2579	1043	1417	1351	
478	478	1042	-2245	-1788	-1863	
479	479	-2193	-1486	-1748	-1747	
480	480	-1489	2016	1541	1554	
481	481	1956	2160	2284	2238	
482	482	2124	-1243	-690	-760	
483	483	-1194	-2388	-2351	-2377	
484	484	-2355	809	297	309	
485	485	758	2679	2539	2521	
486	486	2624	132	622	554	
487	487	158	-2565	-2246	-2298	
488	488	-2512	-619	-1021	-1013	
489	489	-641	2509	2150	2152	
490	490	2443	1456	1765	1701	
491	491	1452	-1971	-1474	-1536	
492	492	-1922	-1854	-2016	-2027	
493	493	-1844	1672	1152	1173	
494	494	1607	2403	2440	2403	
495	495	2359	-801	-252	-333	
496	496	-766	-2537	-2402	-2430	
497	497	-2496	339	-160	-139	
498	498	299	2702	2486	2471	
499	499	2639	599	1036	958	
500	500	614	-2445	-2059	-2111	
501	501	-2394	-1078	-1407	-1401	
502	502	-1084	2308	1875	1885	
503	503	2238	1827	2057	2001	
504	504	1813	-1634	-1096	-1167	
505	505	-1582	-2159	-2226	-2243	
506	506	-2139	1260	734	751	
507	507	1205	2585	2528	2493	
508	508	2536	-336	186	110	
509	509	-311	-2587	-2371	-2410	
510	510	-2549	-141	-599	-585	
511	511	-174	2644	2352	2343	
512	512	2581	1044	1419	1358	
513	513	1043	-2247	-1798	-1861	
514	514	-2192	-1495	-1744	-1748	
515	515	-1491	2020	1539	1553	
516	516	1958	2153	2281	2243	
517	517	2118	-1240	-689	-767	
518	518	-1194	-2391	-2353	-2383	
519	519	-2354	812	297	308	
520	520	764	2680	2542	2520	
521	521	2627	135	621	548	
522	522	153	-2569	-2256	-2297	
523	523	-2519	-619	-1023	-1009	
524	524	-646	2517	2154	2145	
525	525	2444	1459	1764	1701	
526	526	1445	-1979	-1471	-1540	
527	527	-1920	-1858	-2016	-2026	
528	528	-1849	1674	1157	1178	
529	529	1606	2400	2441	2405	
530	530	2366	-794	-247	-330	
531	531	-755	-2532	-2401	-2435	
532	532	-2489	341	-158	-144	
533	533	297	2701	2481	2469	
534	534	2632	599	1035	970	
535	535	607	-2447	-2054	-2114	
536	536	-2395	-1074	-1405	-1404	
537	537	-1085	2304	1880	1886	
538	538	2241	1834	2051	1999	
539	539	1815	-1639	-1094	-1166	
540	540	-1582	-2156	-2226	-2243	
541	541	-2140	1260	734	753	
542	542	1203	2580	2530	2497	
543	543	2535	-336	189	111	
544	544	-308	-2592	-2362	-2412	
545	545	-2551	-144	-604	-582	
546	546	-181	2641	2353	2347	
547	547	2584	1043	1418	1354	
548	548	1045	-2248	-1794	-1856	
549	549	-2197	-1487	-1745	-1741	
550	550	-1491	2022	1544	1553	
551	551	1955	2151	2284	2234	
552	552	2122	-1234	-689	-759	
553	553	-1191	-2384	-2351	-2382	
554	554	-2354	813	301	311	
555	555	763	2679	2542	2514	
556	556	2623	131	615	542	
557	557	151	-2567	-2251	-2302	
558	558	-2515	-623	-1027	-1014	
559	559	-643	2511	2150	2146	
560	560	2444	1461	1763	1701	
561	561	1454	-1975	-1469	-1538	
562	562	-1923	-1859	-2018	-2033	
563	563	-1841	1670	1157	1170	
564	564	1605	2406	2443	2401	
565	565	2365	-803	-246	-330	
566	566	-763	-2536	-2398	-2439	
567	567	-2498	339	-157	-139	
568	568	302	2698	2483	2470	
569	569	2641	594	1034	960	
570	570	612	-2449	-2056	-2109	
571	571	-2395	-1076	-1404	-1400	
572	572	-1091	2305	1876	1887	
573	573	2233	1831	2055	2003	
574	574	1813	-1636	-1095	-1167	
575	575	-1579	-2159	-2225	-2235	
576	576	-2134	1255	742	754	
577	577	1206	2576	2527	2495	
578	578	2535	-344	190	113	
579	579	-316	-2594	-2363	-2408	
580	580	-2551	-140	-603	-588	
581	581	-174	2642	2353	2340	
582	582	2579	1048	1418	1353	
583	583	1047	-2254	-1791	-1858	
584	584	-2195	-1492	-1744	-1742	
585	585	-1491	2018	1541	1553	
586	586	1954	2156	2283	2240	
587	587	2124	-1236	-686	-756	
588	588	-1199	-2391	-2354	-2382	
589	589	-2353	817	300	317	
590	590	769	2685	2542	2518	
591	591	2626	137	621	546	
592	592	151	-2564	-2249	-2300	
593	593	-2512	-617	-1026	-1009	
594	594	-640	2509	2144	2147	
595	595	2450	1457	1761	1702	
596	596	1451	-1969	-1478	-1537	
597	597	-1920	-1858	-2013	-2025	
598	598	-1837	1672	1157	1171	
599	599	1605	2408	2444	2411	
600	600	2363	-800	-260	-339	
601	601	-763	-2536	-2400	-2437	
602	602	-2493	339	-155	-141	
603	603	297	2704	2486	2464	
604	604	2638	594	1032	966	
605	605	613	-2446	-2054	-2112	
606	606	-2397	-1080	-1402	-1400	
607	607	-1089	2307	1877	1885	
608	608	2237	1833	2054	1998	
609	609	1811	-1641	-1096	-1166	
610	610	-1580	-2156	-2223	-2238	
611	611	-2136	1261	742	759	
612	612	1205	2583	2532	2495	
613	613	2528	-336	188	114	
614	614	-306	-2589	-2369	-2409	
615	615	-2543	-137	-601	-589	
616	616	-176	2643	2352	2342	
617	617	2580	1045	1414	1353	
618	618	1048	-2249	-1800	-1858	
619	619	-2198	-1490	-1743	-1742	
620	620	-1492	2022	1540	1553	
621	621	1960	2149	2284	2237	
622	622	2124	-1241	-687	-763	
623	623	-1193	-2383	-2349	-2385	
624	624	-2357	813	294	311	
625	625	762	2676	2539	2513	
626	626	2625	134	620	553	
627	627	153	-2564	-2250	-2300	
628	628	-2519	-621	-1022	-1011	
629	629	-645	2510	2149	2148	
630	630	2443	1461	1757	1700	
631	631	1448	-1977	-1472	-1539	
632	632	-1925	-1856	-2019	-2024	
633	633	-1846	1674	1157	1175	
634	634	1607	2408	2436	2409	
635	635	2366	-804	-256	-332	
636	636	-766	-2534	-2406	-2436	
637	637	-2500	341	-155	-142	
638	638	292	2697	2478	2461	
639	639	2637	592	1035	969	
640	640	609	-2451	-2057	-2119	
641	641	-2395	-1079	-1402	-1403	
642	642	-1089	2304	1876	1880	
643	643	2233	1837	2056	2000	
644	644	1812	-1636	-1096	-1169	
645	645	-1588	-2158	-2220	-2245	
646	646	-2133	1262	740	758	
647	647	1203	2580	2527	2498	
648	648	2535	-342	185	113	
649	649	-312	-2588	-2364	-2404	
650	650	-2551	-143	-606	-592	
651	651	-178	2650	2352	2345	
652	652	2578	1045	1419	1355	
653	653	1044	-2253	-1793	-1861	
654	654	-2198	-1491	-1743	-1745	
655	655	-1497	2028	1546	1559	
656	656	1954	2150	2282	2233	
657	657	2121	-1239	-682	-761	
658	658	-1193	-2391	-2347	-2379	
659	659	-2356	813	297	318	
660	660	763	2680	2537	2522	
661	661	2622	134	620	549	
662	662	149	-2562	-2248	-2306	
663	663	-2517	-622	-1023	-1012	
664	664	-644	2514	2152	2151	
665	665	2446	1459	1758	1704	
666	666	1450	-1972	-1472	-1536	
667	667	-1923	-1860	-2015	-2025	
668	668	-1846	1668	1159	1180	
669	669	1608	2407	2446	2408	
670	670	2362	-800	-257	-333	
